+ . /mnt/c3platpersistent/share/startup/common.sh
++ source /etc/os-release
+++ PRETTY_NAME='Debian GNU/Linux 9 (stretch)'
+++ NAME='Debian GNU/Linux'
+++ VERSION_ID=9
+++ VERSION='9 (stretch)'
+++ VERSION_CODENAME=stretch
+++ ID=debian
+++ HOME_URL=https://www.debian.org/
+++ SUPPORT_URL=https://www.debian.org/support
+++ BUG_REPORT_URL=https://bugs.debian.org/
++ export DEBIAN_VERSION=9
++ DEBIAN_VERSION=9
++ export LD_LIBRARY_PATH=/mnt/c3platpersistent/lib/deb9:/mnt/c3platpersistent/lib
++ LD_LIBRARY_PATH=/mnt/c3platpersistent/lib/deb9:/mnt/c3platpersistent/lib
+++ basename -- /mnt/c3platpersistent/etc/startup.d//013_load_calibration_to_radio_1.sh
++ APP_SCR=013_load_calibration_to_radio_1.sh
+++ readlink -f -- /mnt/c3platpersistent/etc/startup.d//013_load_calibration_to_radio_1.sh
++ ACT_DIR=/mnt/c3platpersistent/etc/startup.d/013_load_calibration_to_radio_1.sh
+++ dirname /mnt/c3platpersistent/etc/startup.d/013_load_calibration_to_radio_1.sh
++ ABS_PATH=/mnt/c3platpersistent/etc/startup.d
++ ENABLE_LED_HANDLER=false
++ LED_STARTUP_PID=/var/run/flash_pid.startup
++ LED_HANDLER_IP=127.0.0.1
++ LED_HANDLER_PORT=6001
++ LED_HANDLER_AIRLINK_STATISTICS=tx
++ ETH_IF=eth0
++ [[ -n /mnt/c3platpersistent ]]
+++ cat /mnt/c3platpersistent/etc/issue
+++ head -n 1
++ export VARIANTRS=USDoT-NAStack
++ VARIANTRS=USDoT-NAStack
++ export WATCHDOG_SCRIPTS_PATH=/var/run/supervision/scripts
++ WATCHDOG_SCRIPTS_PATH=/var/run/supervision/scripts
++ mkdir -p /var/run/supervision/scripts
++ [[ false == false ]]
++ export ROADSIDE_IPTABLES_ENABLED=true
++ ROADSIDE_IPTABLES_ENABLED=true
++ export CERTPATH=/mnt/c3platpersistent/share/its-g5-security-certs/
++ CERTPATH=/mnt/c3platpersistent/share/its-g5-security-certs/
++ export GPSD_DEBUG=0
++ GPSD_DEBUG=0
++ export GPSD_OPTS=
++ GPSD_OPTS=
++ [[ 9 == 9 ]]
++ export PPSDEVICE=/dev/pps1
++ PPSDEVICE=/dev/pps1
++ export GPSD_CYCLE_TIME=1.0
++ GPSD_CYCLE_TIME=1.0
++ [[ USDoT-NAStack =~ .*CCA.* ]]
++ [[ USDoT-NAStack =~ USDoT-QualcommRR ]]
++ export ENABLED_RADIOS=:NXP:
++ ENABLED_RADIOS=:NXP:
++ [[ -e /etc/eeprom-cb/a.dualradio.mode ]]
++ [[ -e /mnt/c3platpersistent/etc/roadside.cfg ]]
++ source /mnt/c3platpersistent/etc/roadside.cfg
+++ export AEROLINK_BASE=/mnt/c3platpersistent/etc/aerolink/ieee
+++ AEROLINK_BASE=/mnt/c3platpersistent/etc/aerolink/ieee
+++ export AEROLINK_CONFIG_DIR=/mnt/c3platpersistent/etc/aerolink/ieee/config/
+++ AEROLINK_CONFIG_DIR=/mnt/c3platpersistent/etc/aerolink/ieee/config/
+++ export AEROLINK_STATE_DIR=/mnt/c3platpersistent/etc/aerolink/ieee/state/
+++ AEROLINK_STATE_DIR=/mnt/c3platpersistent/etc/aerolink/ieee/state/
+++ export INIT_TARGET=./share/urb/cfgdb2stack.usdot.urb
+++ INIT_TARGET=./share/urb/cfgdb2stack.usdot.urb
+ eeprom_address_memory=0x50
++ /bin/i2cadapter.sh -n
+ I2C_BUS=10
++ /bin/i2cadapter.sh -n
+ i2c_bus_address=11
+ debug=0
+ [[ false == true ]]
+ '[' xstart = xstart ']'
+ [[ :NXP: =~ .*:NXP:.* ]]
+ logger '013_load_calibration_to_radio_1.sh -I- starting up'
+ grep ' 71 '
+ i2cdetect -y 11
+ logger '013_load_calibration_to_radio_1.sh -D- unconditional write to HSM ! ---'
+ i2cset -y 10 0x48 0x0F
++ read_1_byte 0x20
+++ i2cget -y 11 0x50 0x20
++ echo 0xb2
+ CH1=0xb2
+++ read_2_byte 0x21
++++ i2cget -y 11 0x50 0x21 w
+++ echo 0xffff
++ twos_2 0xffff
++ x=0xffff
++ '[' 65535 -ge 32768 ']'
++ ((  x = x - 0x10000  ))
++ echo -1
+ Pedp1=-1
+++ read_2_byte 0x23
++++ i2cget -y 11 0x50 0x23 w
+++ echo 0xffeb
++ twos_2 0xffeb
++ x=0xffeb
++ '[' 65515 -ge 32768 ']'
++ ((  x = x - 0x10000  ))
++ echo -21
+ Pedp2=-21
++ read_1_byte 0x50
+++ i2cget -y 11 0x50 0x50
++ echo 0x02
+ Tn=0x02
++ read_1_byte 0x51
+++ i2cget -y 11 0x50 0x51
++ echo 0x48
+ Ti1=0x48
++ read_1_byte 0x52
+++ i2cget -y 11 0x50 0x52
++ echo 0x49
+ Ti2=0x49
++ read_4_byte 0x53
+++ i2cget -y 11 0x50 85 w
+++ i2cget -y 10 0x50 0x53 w
+++ cut -c3-6
++ echo 0x00000110
+ Tf1=0x00000110
++ read_4_byte 0x57
+++ i2cget -y 11 0x50 89 w
+++ i2cget -y 10 0x50 0x57 w
+++ cut -c3-6
++ echo 0x00000000
+ To1=0x00000000
++ read_4_byte 0x5b
+++ i2cget -y 11 0x50 93 w
+++ i2cget -y 10 0x50 0x5b w
+++ cut -c3-6
++ echo 0x00000000
+ Tf2=0x00000000
++ read_4_byte 0x60
+++ i2cget -y 11 0x50 98 w
+++ i2cget -y 10 0x50 0x60 w
+++ cut -c3-6
++ echo 0x00000000
+ To2=0x00000000
++ read_1_byte 0x64
+++ i2cget -y 11 0x50 0x64
++ echo 0x69
+ Tt=0x69
++ read_1_byte 0x65
+++ i2cget -y 11 0x50 0x65
++ echo 0x14
+ Tp=0x14
++ read_1_byte 0xa0
+++ i2cget -y 11 0x50 0xa0
++ echo 0x02
+ Pcal=0x02
++ read_2_byte 0xa1
+++ i2cget -y 11 0x50 0xa1 w
++ echo 0x1770
+ Cp1a1_p=0x1770
++ read_4_byte 0xa3
+++ i2cget -y 11 0x50 165 w
+++ cut -c3-6
+++ i2cget -y 10 0x50 0xa3 w
++ echo 0x00050000
+ Cp1a1_c=0x00050000
++ read_2_byte 0xa7
+++ i2cget -y 11 0x50 0xa7 w
++ echo 0x0085
+ Cp1a1_r=0x0085
++ read_2_byte 0xb1
+++ i2cget -y 11 0x50 0xb1 w
++ echo 0x1d4c
+ Cp2a1_p=0x1d4c
++ read_4_byte 0xb3
+++ i2cget -y 11 0x50 181 w
+++ i2cget -y 10 0x50 0xb3 w
+++ cut -c3-6
++ echo 0x000c0000
+ Cp2a1_c=0x000c0000
++ read_2_byte 0xb7
+++ i2cget -y 11 0x50 0xb7 w
++ echo 0x0049
+ Cp2a1_r=0x0049
++ read_2_byte 0xc1
+++ i2cget -y 11 0x50 0xc1 w
++ echo 0x1770
+ Cp1a2_p=0x1770
++ read_4_byte 0xc3
+++ i2cget -y 11 0x50 197 w
+++ i2cget -y 10 0x50 0xc3 w
+++ cut -c3-6
++ echo 0x00030000
+ Cp1a2_c=0x00030000
++ read_2_byte 0xc7
+++ i2cget -y 11 0x50 0xc7 w
++ echo 0x0090
+ Cp1a2_r=0x0090
++ read_2_byte 0xd1
+++ i2cget -y 11 0x50 0xd1 w
++ echo 0x1d4c
+ Cp2a2_p=0x1d4c
++ read_4_byte 0xd3
+++ i2cget -y 11 0x50 213 w
+++ i2cget -y 10 0x50 0xd3 w
+++ cut -c3-6
++ echo 0x000a0000
+ Cp2a2_c=0x000a0000
++ read_2_byte 0xd7
+++ i2cget -y 11 0x50 0xd7 w
++ echo 0x0050
+ Cp2a2_r=0x0050
++ read_1_byte 0xe0
+++ i2cget -y 11 0x50 0xe0
++ echo 0x2e
+ Ct=0x2e
++ read_2_byte 0xe1
+++ i2cget -y 11 0x50 0xe1 w
++ echo 0x0444
+ Temp_off=0x0444
++ read_4_byte 0xe3
+++ i2cget -y 11 0x50 229 w
+++ i2cget -y 10 0x50 0xe3 w
+++ cut -c3-6
++ echo 0x003d0000
+ P_det_read=0x003d0000
++ read_4_byte 0xec
+++ i2cget -y 11 0x50 238 w
+++ i2cget -y 10 0x50 0xec w
+++ cut -c3-6
++ echo 0x00000000
+ RSSI=0x00000000
+ '[' 0 -ne 0 ']'
+ '[' -e /etc/eeprom-cb/p.radio1.ant1.atten ']'
++ cat /etc/eeprom-cb/p.radio1.ant1.atten
+ Pedp1=114
+ '[' -e /etc/eeprom-cb/p.radio1.ant2.atten ']'
++ cat /etc/eeprom-cb/p.radio1.ant2.atten
+ Pedp2=209
+ '[' 0 -ne 0 ']'
+ cd /mnt/c3platpersistent/opt/11p/bin/llc
+ calibration_error=0
+ ./llc powerdet 2 6000 5 0.00203 7500 12.2 0.00112 6000 3.3 0.0022 7500 10.7 0.00122 46 0.016667 4000000
+ calibration_error=0
+ ./llc temp cfg 2 72 73 0 0 0 0 105 20
+ calibration_error=0
+ ./llc reg w 0 65 114
+ calibration_error=0
+ ./llc reg w 0 66 209
+ calibration_error=0
+ '[' 0 -eq 0 ']'
+ logger '013_load_calibration_to_radio_1.sh -I- radio calibration success'
